
T4D34 000:069 SEGGER J-Link V6.12a Log File (0001ms, 0028ms total)
T4D34 000:069 DLL Compiled: Dec  2 2016 16:44:26 (0001ms, 0028ms total)
T4D34 000:069 Logging started @ 2017-03-01 17:52 (0001ms, 0028ms total)
T4D34 000:070 JLINK_SetWarnOutHandler(...) (0000ms, 0028ms total)
T4D34 000:070 JLINK_OpenEx(...)
Firmware: J-Link OB-SAM3U128-V2-NordicSemi compiled Nov 14 2016 16:58:29
Hardware: V1.00
S/N: 682435478WEBSRV Webserver running on local port 19080 (0014ms, 0042ms total)
T4D34 000:070   returns O.K. (0014ms, 0042ms total)
T4D34 000:084 JLINK_SetErrorOutHandler(...) (0000ms, 0042ms total)
T4D34 000:084 JLINK_ExecCommand("ProjectFile = "C:\SDK\examples\ble_peripheral\ble_app_slave_uart\pca10040\s132\arm5_no_packs\JLinkSettings.ini"", ...). C:\Program Files (x86)\SEGGER\JLink_V612a\JLinkDevices.xml evaluated successfully.  returns 0x00 (0155ms, 0197ms total)
T4D34 000:239 JLINK_ExecCommand("Device = nRF52832_xxAA", ...). Device "NRF52832_XXAA" selected.  returns 0x00 (0001ms, 0198ms total)
T4D34 000:240 JLINK_ExecCommand("DisableConnectionTimeout", ...).   returns 0x01 (0000ms, 0198ms total)
T4D34 000:240 JLINK_GetHardwareVersion()  returns 0x2710 (0000ms, 0198ms total)
T4D34 000:240 JLINK_GetDLLVersion()  returns 61201 (0000ms, 0198ms total)
T4D34 000:240 JLINK_GetFirmwareString(...) (0000ms, 0198ms total)
T4D34 000:241 JLINK_GetDLLVersion()  returns 61201 (0000ms, 0198ms total)
T4D34 000:241 JLINK_GetCompileDateTime() (0000ms, 0198ms total)
T4D34 000:241 JLINK_GetFirmwareString(...) (0000ms, 0198ms total)
T4D34 000:241 JLINK_GetHardwareVersion()  returns 0x2710 (0000ms, 0198ms total)
T4D34 000:241 JLINK_TIF_Select(JLINKARM_TIF_SWD)  returns 0x00 (0001ms, 0199ms total)
T4D34 000:242 JLINK_SetSpeed(5000) (0000ms, 0199ms total)
T4D34 000:242 JLINK_GetId() >0x108 TIF>Found SWD-DP with ID 0x2BA01477 >0x0D TIF> >0x28 TIF> >0x0D TIF> >0x28 TIF> >0x0D TIF> >0x28 TIF> >0x0D TIF> >0x28 TIF> >0x0D TIF> >0x28 TIF> >0x0D TIF> >0x28 TIF> >0x35 TIF> >0x35 TIF> >0x0D TIF> >0x28 TIF> >0x35 TIF> >0x35 TIF> >0x108 TIF>Found SWD-DP with ID 0x2BA01477 >0x0D TIF> >0x28 TIF> >0x0D TIF> >0x28 TIF> >0x0D TIF> >0x28 TIF> >0x0D TIF> >0x28 TIF> >0x35 TIF> >0x0D TIF> >0x28 TIF> >0x0D TIF> >0x28 TIF> >0x35 TIF> >0x35 TIF> >0x35 TIF>
AP-IDR: 0x24770011, Type: AHB-AP >0x0D TIF> >0x28 TIF> >0x0D TIF> >0x28 TIF> >0x0D TIF> >0x28 TIF> >0x35 TIF> >0x35 TIF> >0x0D TIF> >0x28 TIF> >0x35 TIF> >0x35 TIF>Found Cortex-M4 r0p1, Little endian. -- CPU_ReadMem(4 bytes @ 0xE000EDF0) -- CPU_WriteMem(4 bytes @ 0xE000EDF0) -- CPU_ReadMem(4 bytes @ 0xE0002000)FPUnit: 6 code (BP) slots and 2 literal slots -- CPU_ReadMem(4 bytes @ 0xE000EDFC) -- CPU_WriteMem(4 bytes @ 0xE000EDFC) -- CPU_ReadMem(4 bytes @ 0xE0001000) -- CPU_WriteMem(4 bytes @ 0xE0001000)
 -- CPU_ReadMem(4 bytes @ 0xE000ED88) -- CPU_WriteMem(4 bytes @ 0xE000ED88) -- CPU_ReadMem(4 bytes @ 0xE000ED88) -- CPU_WriteMem(4 bytes @ 0xE000ED88)CoreSight components:ROMTbl 0 @ E00FF000 -- CPU_ReadMem(16 bytes @ 0xE00FF000) -- CPU_ReadMem(16 bytes @ 0xE000EFF0) -- CPU_ReadMem(16 bytes @ 0xE000EFE0)ROMTbl 0 [0]: FFF0F000, CID: B105E00D, PID: 000BB00C SCS -- CPU_ReadMem(16 bytes @ 0xE0001FF0) -- CPU_ReadMem(16 bytes @ 0xE0001FE0)ROMTbl 0 [1]: FFF02000, CID: B105E00D, PID: 003BB002 DWT
 -- CPU_ReadMem(16 bytes @ 0xE0002FF0) -- CPU_ReadMem(16 bytes @ 0xE0002FE0)ROMTbl 0 [2]: FFF03000, CID: B105E00D, PID: 002BB003 FPB -- CPU_ReadMem(16 bytes @ 0xE0000FF0) -- CPU_ReadMem(16 bytes @ 0xE0000FE0)ROMTbl 0 [3]: FFF01000, CID: B105E00D, PID: 003BB001 ITM -- CPU_ReadMem(16 bytes @ 0xE00FF010) -- CPU_ReadMem(16 bytes @ 0xE0040FF0) -- CPU_ReadMem(16 bytes @ 0xE0040FE0)ROMTbl 0 [4]: FFF41000, CID: B105900D, PID: 000BB9A1 TPIU -- CPU_ReadMem(16 bytes @ 0xE0041FF0)
 -- CPU_ReadMem(16 bytes @ 0xE0041FE0)ROMTbl 0 [5]: FFF42000, CID: B105900D, PID: 000BB925 ETM >0x35 TIF>  returns 0x2BA01477 (0029ms, 0228ms total)
T4D34 000:271 JLINK_GetDLLVersion()  returns 61201 (0000ms, 0228ms total)
T4D34 000:271 JLINK_CORE_GetFound()  returns 0xE0000FF (0000ms, 0228ms total)
T4D34 000:271 JLINK_GetDebugInfo(0x100) -- Value=0xE00FF000  returns 0x00 (0000ms, 0228ms total)
T4D34 000:271 JLINK_GetDebugInfo(0x100) -- Value=0xE00FF000  returns 0x00 (0000ms, 0228ms total)
T4D34 000:271 JLINK_GetDebugInfo(0x101) -- Value=0xE0041000  returns 0x00 (0000ms, 0228ms total)
T4D34 000:271 JLINK_GetDebugInfo(0x102) -- Value=0x00000000  returns 0x00 (0000ms, 0228ms total)
T4D34 000:271 JLINK_GetDebugInfo(0x103) -- Value=0xE0040000  returns 0x00 (0000ms, 0228ms total)
T4D34 000:271 JLINK_GetDebugInfo(0x104) -- Value=0xE0000000  returns 0x00 (0000ms, 0228ms total)
T4D34 000:271 JLINK_GetDebugInfo(0x105) -- Value=0xE0001000  returns 0x00 (0000ms, 0228ms total)
T4D34 000:271 JLINK_GetDebugInfo(0x106) -- Value=0xE0002000  returns 0x00 (0000ms, 0228ms total)
T4D34 000:271 JLINK_GetDebugInfo(0x107) -- Value=0xE000E000  returns 0x00 (0000ms, 0228ms total)
T4D34 000:271 JLINK_GetDebugInfo(0x10C) -- Value=0xE000EDF0  returns 0x00 (0000ms, 0228ms total)
T4D34 000:271 JLINK_ReadMemU32(0xE000EF40, 0x0001 Items, ...) -- CPU is running -- CPU_ReadMem(4 bytes @ 0xE000EF40) - Data: 21 00 11 10  returns 0x01 (0001ms, 0229ms total)
T4D34 000:272 JLINK_ReadMemU32(0xE000EF44, 0x0001 Items, ...) -- CPU is running -- CPU_ReadMem(4 bytes @ 0xE000EF44) - Data: 11 00 00 11  returns 0x01 (0000ms, 0229ms total)
T4D34 000:272 JLINK_ReadMemU32(0xE000ED00, 0x0001 Items, ...) -- CPU is running -- CPU_ReadMem(4 bytes @ 0xE000ED00) - Data: 41 C2 0F 41  returns 0x01 (0001ms, 0230ms total)
T4D34 000:273 JLINK_SetResetType(JLINKARM_CM3_RESET_TYPE_NORMAL)  returns JLINKARM_CM3_RESET_TYPE_NORMAL (0000ms, 0230ms total)
T4D34 000:273 JLINK_Reset() -- CPU is running -- CPU_WriteMem(4 bytes @ 0xE000EDF0) -- CPU is running -- CPU_WriteMem(4 bytes @ 0xE000EDFC) >0x35 TIF> -- CPU is running -- CPU_WriteMem(4 bytes @ 0xE000ED0C) -- CPU is running -- CPU_ReadMem(4 bytes @ 0xE000EDF0) -- CPU is running -- CPU_ReadMem(4 bytes @ 0xE000EDF0) -- CPU is running -- CPU_WriteMem(4 bytes @ 0xE000EDF0) -- CPU is running -- CPU_WriteMem(4 bytes @ 0xE000EDFC) -- CPU is running -- CPU_ReadMem(4 bytes @ 0xE000EDF0)
 -- CPU_WriteMem(4 bytes @ 0xE0002000) -- CPU_ReadMem(4 bytes @ 0xE000EDFC) -- CPU_ReadMem(4 bytes @ 0xE0001000) (0023ms, 0253ms total)
T4D34 000:296 JLINK_ReadReg(R15 (PC))  returns 0x000008E4 (0000ms, 0253ms total)
T4D34 000:296 JLINK_ReadReg(XPSR)  returns 0x01000000 (0000ms, 0253ms total)
T4D34 000:296 JLINK_Halt()  returns 0x00 (0001ms, 0254ms total)
T4D34 000:297 JLINK_IsHalted()  returns TRUE (0000ms, 0254ms total)
T4D34 000:297 JLINK_ReadMemU32(0xE000EDF0, 0x0001 Items, ...) -- CPU_ReadMem(4 bytes @ 0xE000EDF0) - Data: 03 00 03 00  returns 0x01 (0000ms, 0254ms total)
T4D34 000:297 JLINK_WriteU32(0xE000EDF0, 0xA05F0003) -- CPU_WriteMem(4 bytes @ 0xE000EDF0)  returns 0x00 (0001ms, 0255ms total)
T4D34 000:298 JLINK_WriteU32(0xE000EDFC, 0x01000000) -- CPU_WriteMem(4 bytes @ 0xE000EDFC)  returns 0x00 (0001ms, 0256ms total)
T4D34 000:299 JLINK_GetHWStatus(...)  returns 0x00 (0000ms, 0256ms total)
T4D34 000:299 JLINK_GetNumBPUnits(Type = 0xFFFFFF00)  returns 0x06 (0000ms, 0256ms total)
T4D34 000:299 JLINK_GetNumBPUnits(Type = 0xF0)  returns 0x2000 (0000ms, 0256ms total)
T4D34 000:299 JLINK_GetNumWPUnits()  returns 0x04 (0000ms, 0256ms total)
T4D34 000:299 JLINK_GetSpeed()  returns 0x3E8 (0000ms, 0256ms total)
T4D34 000:299 JLINK_ReadMemU32(0xE000E004, 0x0001 Items, ...) -- CPU_ReadMem(4 bytes @ 0xE000E004) - Data: 01 00 00 00  returns 0x01 (0001ms, 0257ms total)
T4D34 000:300 JLINK_ReadMemU32(0xE000E004, 0x0001 Items, ...) -- CPU_ReadMem(4 bytes @ 0xE000E004) - Data: 01 00 00 00  returns 0x01 (0001ms, 0258ms total)
T4D34 000:301 JLINK_WriteMem(0xE0001000, 0x001C Bytes, ...) - Data: 01 00 00 00 00 00 00 00 00 00 00 00 00 00 00 00 ... -- CPU_WriteMem(28 bytes @ 0xE0001000)  returns 0x1C (0002ms, 0260ms total)
T4D34 000:303 JLINK_ReadMem (0xE0001000, 0x001C Bytes, ...) -- CPU_ReadMem(28 bytes @ 0xE0001000) - Data: 01 00 00 40 00 00 00 00 00 00 00 00 00 00 00 00 ...  returns 0x00 (0001ms, 0261ms total)
T4D34 000:304 JLINK_ReadReg(R15 (PC))  returns 0x000008E4 (0000ms, 0261ms total)
T4D34 000:304 JLINK_ReadReg(XPSR)  returns 0x01000000 (0000ms, 0261ms total)
T4D34 000:405 JLINK_SetResetType(JLINKARM_CM3_RESET_TYPE_NORMAL)  returns JLINKARM_CM3_RESET_TYPE_NORMAL (0000ms, 0261ms total)
T4D34 000:405 JLINK_Reset() -- CPU_WriteMem(4 bytes @ 0xE000EDF0) -- CPU_WriteMem(4 bytes @ 0xE000EDFC) >0x35 TIF> -- CPU_WriteMem(4 bytes @ 0xE000ED0C) -- CPU_ReadMem(4 bytes @ 0xE000EDF0) -- CPU_ReadMem(4 bytes @ 0xE000EDF0) -- CPU_WriteMem(4 bytes @ 0xE000EDF0) -- CPU_WriteMem(4 bytes @ 0xE000EDFC) -- CPU is running -- CPU_ReadMem(4 bytes @ 0xE000EDF0) -- CPU_WriteMem(4 bytes @ 0xE0002000) -- CPU_ReadMem(4 bytes @ 0xE000EDFC) -- CPU_ReadMem(4 bytes @ 0xE0001000) (0023ms, 0284ms total)
T4D34 000:428 JLINK_ReadReg(R15 (PC))  returns 0x000008E4 (0000ms, 0284ms total)
T4D34 000:428 JLINK_ReadReg(XPSR)  returns 0x01000000 (0000ms, 0284ms total)
T4D34 000:429 JLINK_ReadMem (0x000008E4, 0x003C Bytes, ...) -- CPU_ReadMem(128 bytes @ 0x000008C0) -- Updating C cache (128 bytes @ 0x000008C0) -- Read from C cache (60 bytes @ 0x000008E4) - Data: 06 4B 18 47 06 4A 10 60 01 68 81 F3 08 88 40 68 ...  returns 0x00 (0002ms, 0286ms total)
T024C 006:623 JLINK_SetBPEx(Addr = 0x0002116C, Type = 0xFFFFFFF2)  returns 0x00000001 (0000ms, 0286ms total)
T024C 006:623 JLINK_SetBPEx(Addr = 0x0002031E, Type = 0xFFFFFFF2)  returns 0x00000002 (0000ms, 0286ms total)
T024C 006:623 JLINK_Go() -- CPU_WriteMem(4 bytes @ 0xE0002000) -- CPU_WriteMem(4 bytes @ 0xE0002000) -- CPU_ReadMem(4 bytes @ 0xE0001000) -- CPU_WriteMem(4 bytes @ 0xE0002008) -- CPU_WriteMem(4 bytes @ 0xE000200C) -- CPU_WriteMem(4 bytes @ 0xE0002010) -- CPU_WriteMem(4 bytes @ 0xE0002014) -- CPU_WriteMem(4 bytes @ 0xE0002018) -- CPU_WriteMem(4 bytes @ 0xE000201C) -- CPU_WriteMem(4 bytes @ 0xE0001004) (0007ms, 0293ms total)
T024C 006:730 JLINK_IsHalted()  returns TRUE (0007ms, 0300ms total)
T024C 006:737 JLINK_Halt()  returns 0x00 (0000ms, 0293ms total)
T024C 006:737 JLINK_IsHalted()  returns TRUE (0000ms, 0293ms total)
T024C 006:737 JLINK_IsHalted()  returns TRUE (0000ms, 0293ms total)
T024C 006:737 JLINK_IsHalted()  returns TRUE (0000ms, 0293ms total)
T024C 006:737 JLINK_ReadReg(R15 (PC))  returns 0x0002116C (0000ms, 0293ms total)
T024C 006:737 JLINK_ReadReg(XPSR)  returns 0x61000000 (0000ms, 0293ms total)
T024C 006:737 JLINK_ClrBPEx(BPHandle = 0x00000001)  returns 0x00 (0000ms, 0293ms total)
T024C 006:737 JLINK_ClrBPEx(BPHandle = 0x00000002)  returns 0x00 (0000ms, 0293ms total)
T024C 006:737 JLINK_ReadMemU32(0xE000ED30, 0x0001 Items, ...) -- CPU_ReadMem(4 bytes @ 0xE000ED30) - Data: 02 00 00 00  returns 0x01 (0001ms, 0294ms total)
T024C 006:738 JLINK_ReadMemU32(0xE0001028, 0x0001 Items, ...) -- CPU_ReadMem(4 bytes @ 0xE0001028) - Data: 00 00 00 00  returns 0x01 (0000ms, 0294ms total)
T024C 006:738 JLINK_ReadMemU32(0xE0001038, 0x0001 Items, ...) -- CPU_ReadMem(4 bytes @ 0xE0001038) - Data: 00 02 00 00  returns 0x01 (0001ms, 0295ms total)
T024C 006:739 JLINK_ReadMemU32(0xE0001048, 0x0001 Items, ...) -- CPU_ReadMem(4 bytes @ 0xE0001048) - Data: 00 00 00 00  returns 0x01 (0001ms, 0296ms total)
T024C 006:740 JLINK_ReadMemU32(0xE0001058, 0x0001 Items, ...) -- CPU_ReadMem(4 bytes @ 0xE0001058) - Data: 00 00 00 00  returns 0x01 (0000ms, 0296ms total)
T024C 006:741 JLINK_ReadReg(R0)  returns 0x0002116D (0000ms, 0296ms total)
T024C 006:741 JLINK_ReadReg(R1)  returns 0x20004518 (0000ms, 0296ms total)
T024C 006:741 JLINK_ReadReg(R2)  returns 0x00000000 (0000ms, 0296ms total)
T024C 006:741 JLINK_ReadReg(R3)  returns 0x0001FA45 (0000ms, 0296ms total)
T024C 006:741 JLINK_ReadReg(R4)  returns 0x00022204 (0000ms, 0296ms total)
T024C 006:741 JLINK_ReadReg(R5)  returns 0x00022204 (0000ms, 0296ms total)
T024C 006:741 JLINK_ReadReg(R6)  returns 0x00000000 (0000ms, 0296ms total)
T024C 006:741 JLINK_ReadReg(R7)  returns 0x00000000 (0000ms, 0296ms total)
T024C 006:741 JLINK_ReadReg(R8)  returns 0x00000000 (0000ms, 0296ms total)
T024C 006:741 JLINK_ReadReg(R9)  returns 0x00000000 (0000ms, 0296ms total)
T024C 006:741 JLINK_ReadReg(R10)  returns 0x00000000 (0000ms, 0296ms total)
T024C 006:741 JLINK_ReadReg(R11)  returns 0x00000000 (0000ms, 0296ms total)
T024C 006:741 JLINK_ReadReg(R12)  returns 0x00000000 (0000ms, 0296ms total)
T024C 006:741 JLINK_ReadReg(R13 (SP))  returns 0x20004518 (0000ms, 0296ms total)
T024C 006:741 JLINK_ReadReg(R14)  returns 0x0001F4C9 (0000ms, 0296ms total)
T024C 006:741 JLINK_ReadReg(R15 (PC))  returns 0x0002116C (0000ms, 0296ms total)
T024C 006:741 JLINK_ReadReg(XPSR)  returns 0x61000000 (0000ms, 0296ms total)
T024C 006:741 JLINK_ReadReg(MSP)  returns 0x20004518 (0000ms, 0296ms total)
T024C 006:741 JLINK_ReadReg(PSP)  returns 0x00000000 (0000ms, 0296ms total)
T024C 006:741 JLINK_ReadReg(CFBP)  returns 0x00000000 (0000ms, 0296ms total)
T024C 006:741 JLINK_ReadReg(FPSCR)  returns 0x00000000 (0011ms, 0307ms total)
T024C 006:752 JLINK_ReadReg(FPS0)  returns 0x00000000 (0000ms, 0307ms total)
T024C 006:752 JLINK_ReadReg(FPS1)  returns 0x00000000 (0000ms, 0307ms total)
T024C 006:752 JLINK_ReadReg(FPS2)  returns 0x00000000 (0000ms, 0307ms total)
T024C 006:752 JLINK_ReadReg(FPS3)  returns 0x00000000 (0000ms, 0307ms total)
T024C 006:752 JLINK_ReadReg(FPS4)  returns 0x00000000 (0000ms, 0307ms total)
T024C 006:752 JLINK_ReadReg(FPS5)  returns 0x00000000 (0000ms, 0307ms total)
T024C 006:752 JLINK_ReadReg(FPS6)  returns 0x00000000 (0000ms, 0307ms total)
T024C 006:752 JLINK_ReadReg(FPS7)  returns 0x00000000 (0000ms, 0307ms total)
T024C 006:752 JLINK_ReadReg(FPS8)  returns 0x00000000 (0000ms, 0307ms total)
T024C 006:752 JLINK_ReadReg(FPS9)  returns 0x00000000 (0000ms, 0307ms total)
T024C 006:752 JLINK_ReadReg(FPS10)  returns 0x00000000 (0000ms, 0307ms total)
T024C 006:752 JLINK_ReadReg(FPS11)  returns 0x00000000 (0000ms, 0307ms total)
T024C 006:752 JLINK_ReadReg(FPS12)  returns 0x00000000 (0000ms, 0307ms total)
T024C 006:752 JLINK_ReadReg(FPS13)  returns 0x00000000 (0000ms, 0307ms total)
T024C 006:752 JLINK_ReadReg(FPS14)  returns 0x00000000 (0000ms, 0307ms total)
T024C 006:752 JLINK_ReadReg(FPS15)  returns 0x00000000 (0000ms, 0307ms total)
T024C 006:752 JLINK_ReadReg(FPS16)  returns 0x00000000 (0000ms, 0307ms total)
T024C 006:752 JLINK_ReadReg(FPS17)  returns 0x00000000 (0000ms, 0307ms total)
T024C 006:752 JLINK_ReadReg(FPS18)  returns 0x00000000 (0000ms, 0307ms total)
T024C 006:752 JLINK_ReadReg(FPS19)  returns 0x00000000 (0000ms, 0307ms total)
T024C 006:752 JLINK_ReadReg(FPS20)  returns 0x00000000 (0000ms, 0307ms total)
T024C 006:752 JLINK_ReadReg(FPS21)  returns 0x00000000 (0000ms, 0307ms total)
T024C 006:752 JLINK_ReadReg(FPS22)  returns 0x00000000 (0000ms, 0307ms total)
T024C 006:752 JLINK_ReadReg(FPS23)  returns 0x00000000 (0000ms, 0307ms total)
T024C 006:752 JLINK_ReadReg(FPS24)  returns 0x00000000 (0000ms, 0307ms total)
T024C 006:752 JLINK_ReadReg(FPS25)  returns 0x00000000 (0000ms, 0307ms total)
T024C 006:752 JLINK_ReadReg(FPS26)  returns 0x00000000 (0000ms, 0307ms total)
T024C 006:752 JLINK_ReadReg(FPS27)  returns 0x00000000 (0000ms, 0307ms total)
T024C 006:752 JLINK_ReadReg(FPS28)  returns 0x00000000 (0000ms, 0307ms total)
T024C 006:752 JLINK_ReadReg(FPS29)  returns 0x00000000 (0000ms, 0307ms total)
T024C 006:752 JLINK_ReadReg(FPS30)  returns 0x00000000 (0000ms, 0307ms total)
T024C 006:752 JLINK_ReadReg(FPS31)  returns 0x00000000 (0000ms, 0307ms total)
T4D34 006:753 JLINK_ReadMem (0x00000000, 0x0004 Bytes, ...) -- CPU_ReadMem(64 bytes @ 0x00000000) -- Updating C cache (64 bytes @ 0x00000000) -- Read from C cache (4 bytes @ 0x00000000) - Data: 00 04 00 20  returns 0x00 (0002ms, 0309ms total)
T4D34 006:760 JLINK_ReadMemU32(0xE0001004, 0x0001 Items, ...) -- CPU_ReadMem(4 bytes @ 0xE0001004) - Data: 91 3A 00 00  returns 0x01 (0001ms, 0310ms total)
T4D34 006:764 JLINK_ReadMem (0x0002106C, 0x003C Bytes, ...) -- CPU_ReadMem(128 bytes @ 0x00021040) -- Updating C cache (128 bytes @ 0x00021040) -- Read from C cache (60 bytes @ 0x0002106C) - Data: 10 4E 01 25 B5 60 00 26 0F 68 C9 69 D9 61 49 B1 ...  returns 0x00 (0002ms, 0312ms total)
T4D34 006:766 JLINK_ReadMem (0x000210A8, 0x003C Bytes, ...) -- CPU_ReadMem(64 bytes @ 0x000210C0) -- Updating C cache (64 bytes @ 0x000210C0) -- Read from C cache (60 bytes @ 0x000210A8) - Data: FB E7 00 00 AC 21 00 20 00 10 01 40 2D E9 F0 41 ...  returns 0x00 (0002ms, 0314ms total)
T4D34 006:768 JLINK_ReadMem (0x000210E4, 0x003C Bytes, ...) -- CPU_ReadMem(64 bytes @ 0x00021100) -- Updating C cache (64 bytes @ 0x00021100) -- Read from C cache (60 bytes @ 0x000210E4) - Data: 90 42 00 D1 2E 70 0A 78 48 68 01 2A 2B D1 02 7C ...  returns 0x00 (0002ms, 0316ms total)
T4D34 006:770 JLINK_ReadMem (0x00021120, 0x003C Bytes, ...) -- CPU_ReadMem(64 bytes @ 0x00021140) -- Updating C cache (64 bytes @ 0x00021140) -- Read from C cache (60 bytes @ 0x00021120) - Data: 11 44 06 E0 D1 1A 82 68 21 F0 7F 41 8A 42 02 D9 ...  returns 0x00 (0001ms, 0317ms total)
T4D34 006:771 JLINK_ReadMem (0x0002115C, 0x003C Bytes, ...) -- CPU_ReadMem(64 bytes @ 0x00021180) -- Updating C cache (64 bytes @ 0x00021180) -- Read from C cache (60 bytes @ 0x0002115C) - Data: F0 81 00 20 FB E7 00 00 9C 21 00 20 FF FF 7F 00 ...  returns 0x00 (0002ms, 0319ms total)
T4D34 012:525 JLINK_SetResetType(JLINKARM_CM3_RESET_TYPE_NORMAL)  returns JLINKARM_CM3_RESET_TYPE_NORMAL (0000ms, 0319ms total)
T4D34 012:525 JLINK_Reset() -- CPU_WriteMem(4 bytes @ 0xE000EDF0) -- CPU_WriteMem(4 bytes @ 0xE000EDFC) >0x35 TIF> -- CPU_WriteMem(4 bytes @ 0xE000ED0C) -- CPU_ReadMem(4 bytes @ 0xE000EDF0) -- CPU_ReadMem(4 bytes @ 0xE000EDF0) -- CPU_WriteMem(4 bytes @ 0xE000EDF0) -- CPU_WriteMem(4 bytes @ 0xE000EDFC) -- CPU is running -- CPU_ReadMem(4 bytes @ 0xE000EDF0) -- CPU_WriteMem(4 bytes @ 0xE0002000) -- CPU_ReadMem(4 bytes @ 0xE000EDFC) -- CPU_ReadMem(4 bytes @ 0xE0001000) (0024ms, 0343ms total)
T4D34 012:549 JLINK_ReadReg(R15 (PC))  returns 0x000008E4 (0000ms, 0343ms total)
T4D34 012:549 JLINK_ReadReg(XPSR)  returns 0x01000000 (0000ms, 0343ms total)
T4D34 012:549 JLINK_ReadMemU32(0xE0001004, 0x0001 Items, ...) - Data: 00 00 00 00  returns 0x01 (0000ms, 0343ms total)
T4D34 012:552 JLINK_ReadMem (0x000008E4, 0x003C Bytes, ...) -- CPU_ReadMem(128 bytes @ 0x000008C0) -- Updating C cache (128 bytes @ 0x000008C0) -- Read from C cache (60 bytes @ 0x000008E4) - Data: 06 4B 18 47 06 4A 10 60 01 68 81 F3 08 88 40 68 ...  returns 0x00 (0002ms, 0345ms total)
T024C 013:897 JLINK_SetBPEx(Addr = 0x0002031E, Type = 0xFFFFFFF2)  returns 0x00000003 (0000ms, 0345ms total)
T024C 013:897 JLINK_Go() -- CPU_WriteMem(4 bytes @ 0xE0002000) -- CPU_ReadMem(4 bytes @ 0xE0001000) -- CPU_WriteMem(4 bytes @ 0xE0002008) -- CPU_WriteMem(4 bytes @ 0xE000200C) -- CPU_WriteMem(4 bytes @ 0xE0002010) -- CPU_WriteMem(4 bytes @ 0xE0002014) -- CPU_WriteMem(4 bytes @ 0xE0002018) -- CPU_WriteMem(4 bytes @ 0xE000201C) -- CPU_WriteMem(4 bytes @ 0xE0001004) (0006ms, 0351ms total)
T024C 014:003 JLINK_IsHalted()  returns FALSE (0001ms, 0352ms total)
T024C 014:104 JLINK_IsHalted()  returns FALSE (0000ms, 0351ms total)
T024C 014:205 JLINK_IsHalted()  returns FALSE (0000ms, 0351ms total)
T024C 014:306 JLINK_IsHalted()  returns FALSE (0000ms, 0351ms total)
T024C 014:407 JLINK_IsHalted()  returns TRUE (0006ms, 0357ms total)
T024C 014:413 JLINK_Halt()  returns 0x00 (0000ms, 0351ms total)
T024C 014:413 JLINK_IsHalted()  returns TRUE (0000ms, 0351ms total)
T024C 014:413 JLINK_IsHalted()  returns TRUE (0000ms, 0351ms total)
T024C 014:413 JLINK_IsHalted()  returns TRUE (0000ms, 0351ms total)
T024C 014:413 JLINK_ReadReg(R15 (PC))  returns 0x00020EF0 (0000ms, 0351ms total)
T024C 014:413 JLINK_ReadReg(XPSR)  returns 0x01000000 (0000ms, 0351ms total)
T024C 014:413 JLINK_ClrBPEx(BPHandle = 0x00000003)  returns 0x00 (0000ms, 0351ms total)
T024C 014:413 JLINK_ReadMemU32(0xE000ED30, 0x0001 Items, ...) -- CPU_ReadMem(4 bytes @ 0xE000ED30) - Data: 02 00 00 00  returns 0x01 (0001ms, 0352ms total)
T024C 014:414 JLINK_ReadMemU32(0xE0001028, 0x0001 Items, ...) -- CPU_ReadMem(4 bytes @ 0xE0001028) - Data: 00 00 00 00  returns 0x01 (0001ms, 0353ms total)
T024C 014:415 JLINK_ReadMemU32(0xE0001038, 0x0001 Items, ...) -- CPU_ReadMem(4 bytes @ 0xE0001038) - Data: 00 02 00 00  returns 0x01 (0000ms, 0353ms total)
T024C 014:415 JLINK_ReadMemU32(0xE0001048, 0x0001 Items, ...) -- CPU_ReadMem(4 bytes @ 0xE0001048) - Data: 00 00 00 00  returns 0x01 (0001ms, 0354ms total)
T024C 014:416 JLINK_ReadMemU32(0xE0001058, 0x0001 Items, ...) -- CPU_ReadMem(4 bytes @ 0xE0001058) - Data: 00 00 00 00  returns 0x01 (0000ms, 0354ms total)
T024C 014:417 JLINK_ReadReg(R0)  returns 0x00000003 (0000ms, 0354ms total)
T024C 014:417 JLINK_ReadReg(R1)  returns 0x200043F0 (0000ms, 0354ms total)
T024C 014:417 JLINK_ReadReg(R2)  returns 0x00020EE5 (0000ms, 0354ms total)
T024C 014:417 JLINK_ReadReg(R3)  returns 0x00020EE5 (0000ms, 0354ms total)
T024C 014:417 JLINK_ReadReg(R4)  returns 0x0000000D (0000ms, 0354ms total)
T024C 014:417 JLINK_ReadReg(R5)  returns 0x000212F0 (0000ms, 0354ms total)
T024C 014:417 JLINK_ReadReg(R6)  returns 0x00000000 (0000ms, 0354ms total)
T024C 014:417 JLINK_ReadReg(R7)  returns 0x2000446C (0000ms, 0354ms total)
T024C 014:417 JLINK_ReadReg(R8)  returns 0x00000000 (0000ms, 0354ms total)
T024C 014:417 JLINK_ReadReg(R9)  returns 0x00000000 (0000ms, 0354ms total)
T024C 014:417 JLINK_ReadReg(R10)  returns 0x00020EE5 (0000ms, 0354ms total)
T024C 014:417 JLINK_ReadReg(R11)  returns 0x00000000 (0000ms, 0354ms total)
T024C 014:417 JLINK_ReadReg(R12)  returns 0x00000001 (0000ms, 0354ms total)
T024C 014:417 JLINK_ReadReg(R13 (SP))  returns 0x200043F0 (0000ms, 0354ms total)
T024C 014:417 JLINK_ReadReg(R14)  returns 0x0001FA93 (0000ms, 0354ms total)
T024C 014:417 JLINK_ReadReg(R15 (PC))  returns 0x00020EF0 (0000ms, 0354ms total)
T024C 014:417 JLINK_ReadReg(XPSR)  returns 0x01000000 (0000ms, 0354ms total)
T024C 014:417 JLINK_ReadReg(MSP)  returns 0x200043F0 (0000ms, 0354ms total)
T024C 014:417 JLINK_ReadReg(PSP)  returns 0x00000000 (0000ms, 0354ms total)
T024C 014:417 JLINK_ReadReg(CFBP)  returns 0x00000000 (0000ms, 0354ms total)
T024C 014:417 JLINK_ReadReg(FPSCR)  returns 0x00000000 (0010ms, 0364ms total)
T024C 014:427 JLINK_ReadReg(FPS0)  returns 0x00000000 (0000ms, 0364ms total)
T024C 014:427 JLINK_ReadReg(FPS1)  returns 0x00000000 (0000ms, 0364ms total)
T024C 014:427 JLINK_ReadReg(FPS2)  returns 0x00000000 (0000ms, 0364ms total)
T024C 014:427 JLINK_ReadReg(FPS3)  returns 0x00000000 (0000ms, 0364ms total)
T024C 014:427 JLINK_ReadReg(FPS4)  returns 0x00000000 (0000ms, 0364ms total)
T024C 014:427 JLINK_ReadReg(FPS5)  returns 0x00000000 (0000ms, 0364ms total)
T024C 014:427 JLINK_ReadReg(FPS6)  returns 0x00000000 (0000ms, 0364ms total)
T024C 014:427 JLINK_ReadReg(FPS7)  returns 0x00000000 (0000ms, 0364ms total)
T024C 014:427 JLINK_ReadReg(FPS8)  returns 0x00000000 (0000ms, 0364ms total)
T024C 014:427 JLINK_ReadReg(FPS9)  returns 0x00000000 (0000ms, 0364ms total)
T024C 014:427 JLINK_ReadReg(FPS10)  returns 0x00000000 (0000ms, 0364ms total)
T024C 014:427 JLINK_ReadReg(FPS11)  returns 0x00000000 (0000ms, 0364ms total)
T024C 014:427 JLINK_ReadReg(FPS12)  returns 0x00000000 (0000ms, 0364ms total)
T024C 014:427 JLINK_ReadReg(FPS13)  returns 0x00000000 (0000ms, 0364ms total)
T024C 014:427 JLINK_ReadReg(FPS14)  returns 0x00000000 (0000ms, 0364ms total)
T024C 014:427 JLINK_ReadReg(FPS15)  returns 0x00000000 (0000ms, 0364ms total)
T024C 014:427 JLINK_ReadReg(FPS16)  returns 0x00000000 (0000ms, 0364ms total)
T024C 014:427 JLINK_ReadReg(FPS17)  returns 0x00000000 (0000ms, 0364ms total)
T024C 014:427 JLINK_ReadReg(FPS18)  returns 0x00000000 (0000ms, 0364ms total)
T024C 014:427 JLINK_ReadReg(FPS19)  returns 0x00000000 (0000ms, 0364ms total)
T024C 014:427 JLINK_ReadReg(FPS20)  returns 0x00000000 (0000ms, 0364ms total)
T024C 014:427 JLINK_ReadReg(FPS21)  returns 0x00000000 (0000ms, 0364ms total)
T024C 014:427 JLINK_ReadReg(FPS22)  returns 0x00000000 (0000ms, 0364ms total)
T024C 014:427 JLINK_ReadReg(FPS23)  returns 0x00000000 (0000ms, 0364ms total)
T024C 014:427 JLINK_ReadReg(FPS24)  returns 0x00000000 (0001ms, 0365ms total)
T024C 014:428 JLINK_ReadReg(FPS25)  returns 0x00000000 (0000ms, 0365ms total)
T024C 014:428 JLINK_ReadReg(FPS26)  returns 0x00000000 (0000ms, 0365ms total)
T024C 014:428 JLINK_ReadReg(FPS27)  returns 0x00000000 (0000ms, 0365ms total)
T024C 014:428 JLINK_ReadReg(FPS28)  returns 0x00000000 (0000ms, 0365ms total)
T024C 014:428 JLINK_ReadReg(FPS29)  returns 0x00000000 (0000ms, 0365ms total)
T024C 014:428 JLINK_ReadReg(FPS30)  returns 0x00000000 (0000ms, 0365ms total)
T024C 014:428 JLINK_ReadReg(FPS31)  returns 0x00000000 (0000ms, 0365ms total)
T4D34 014:428 JLINK_ReadMem (0x200043FC, 0x0004 Bytes, ...) -- CPU_ReadMem(64 bytes @ 0x200043C0) -- Updating C cache (64 bytes @ 0x200043C0) -- Read from C cache (4 bytes @ 0x200043FC) - Data: 93 FA 01 00  returns 0x00 (0002ms, 0367ms total)
T4D34 014:430 JLINK_ReadMem (0x200043F4, 0x0004 Bytes, ...) -- Read from C cache (4 bytes @ 0x200043F4) - Data: 00 00 00 00  returns 0x00 (0000ms, 0367ms total)
T4D34 014:430 JLINK_ReadMem (0x200043F8, 0x0004 Bytes, ...) -- Read from C cache (4 bytes @ 0x200043F8) - Data: F0 12 02 00  returns 0x00 (0000ms, 0367ms total)
T4D34 014:430 JLINK_ReadMem (0x2000445C, 0x0004 Bytes, ...) -- CPU_ReadMem(64 bytes @ 0x20004440) -- Updating C cache (64 bytes @ 0x20004440) -- Read from C cache (4 bytes @ 0x2000445C) - Data: 25 FA 01 00  returns 0x00 (0001ms, 0368ms total)
T4D34 014:431 JLINK_ReadMem (0x2000443C, 0x0004 Bytes, ...) -- CPU_ReadMem(64 bytes @ 0x20004400) -- Updating C cache (64 bytes @ 0x20004400) -- Read from C cache (4 bytes @ 0x2000443C) - Data: 00 00 00 00  returns 0x00 (0002ms, 0370ms total)
T4D34 014:433 JLINK_ReadMem (0x20004440, 0x0004 Bytes, ...) -- Read from C cache (4 bytes @ 0x20004440) - Data: 10 00 00 00  returns 0x00 (0000ms, 0370ms total)
T4D34 014:433 JLINK_ReadMem (0x20004444, 0x0004 Bytes, ...) -- Read from C cache (4 bytes @ 0x20004444) - Data: 01 00 00 00  returns 0x00 (0000ms, 0370ms total)
T4D34 014:433 JLINK_ReadMem (0x20004448, 0x0004 Bytes, ...) -- Read from C cache (4 bytes @ 0x20004448) - Data: 00 00 00 00  returns 0x00 (0000ms, 0370ms total)
T4D34 014:433 JLINK_ReadMem (0x2000444C, 0x0004 Bytes, ...) -- Read from C cache (4 bytes @ 0x2000444C) - Data: 00 00 00 00  returns 0x00 (0000ms, 0370ms total)
T4D34 014:433 JLINK_ReadMem (0x20004450, 0x0004 Bytes, ...) -- Read from C cache (4 bytes @ 0x20004450) - Data: 00 00 00 00  returns 0x00 (0000ms, 0370ms total)
T4D34 014:433 JLINK_ReadMem (0x20004454, 0x0004 Bytes, ...) -- Read from C cache (4 bytes @ 0x20004454) - Data: 00 00 00 00  returns 0x00 (0000ms, 0370ms total)
T4D34 014:433 JLINK_ReadMem (0x20004458, 0x0004 Bytes, ...) -- Read from C cache (4 bytes @ 0x20004458) - Data: 00 00 00 00  returns 0x00 (0000ms, 0370ms total)
T4D34 014:433 JLINK_ReadMem (0x20004464, 0x0004 Bytes, ...) -- Read from C cache (4 bytes @ 0x20004464) - Data: 93 12 02 00  returns 0x00 (0000ms, 0370ms total)
T4D34 014:433 JLINK_ReadMem (0x20004460, 0x0004 Bytes, ...) -- Read from C cache (4 bytes @ 0x20004460) - Data: 00 00 00 00  returns 0x00 (0000ms, 0370ms total)
T4D34 014:438 JLINK_ReadMemU32(0xE0001004, 0x0001 Items, ...) -- CPU_ReadMem(4 bytes @ 0xE0001004) - Data: 3C 30 BC 01  returns 0x01 (0001ms, 0371ms total)
T4D34 014:442 JLINK_ReadMem (0x00020EF0, 0x003C Bytes, ...) -- CPU_ReadMem(128 bytes @ 0x00020EC0) -- Updating C cache (128 bytes @ 0x00020EC0) -- Read from C cache (60 bytes @ 0x00020EF0) - Data: AB BE 20 46 38 BD 00 00 20 B1 03 49 49 6E 01 60 ...  returns 0x00 (0002ms, 0373ms total)
T024C 024:729 JLINK_SetBPEx(Addr = 0x0002031E, Type = 0xFFFFFFF2)  returns 0x00000004 (0000ms, 0373ms total)
T024C 024:729 JLINK_Go() -- CPU_WriteMem(4 bytes @ 0xE0002000) -- CPU_ReadMem(4 bytes @ 0xE0001000) (0003ms, 0376ms total)
T024C 024:833 JLINK_IsHalted()  returns TRUE (0006ms, 0382ms total)
T024C 024:839 JLINK_Halt()  returns 0x00 (0000ms, 0376ms total)
T024C 024:839 JLINK_IsHalted()  returns TRUE (0000ms, 0376ms total)
T024C 024:839 JLINK_IsHalted()  returns TRUE (0000ms, 0376ms total)
T024C 024:839 JLINK_IsHalted()  returns TRUE (0000ms, 0376ms total)
T024C 024:839 JLINK_ReadReg(R15 (PC))  returns 0x00020EF0 (0000ms, 0376ms total)
T024C 024:839 JLINK_ReadReg(XPSR)  returns 0x01000000 (0000ms, 0376ms total)
T024C 024:839 JLINK_ClrBPEx(BPHandle = 0x00000004)  returns 0x00 (0000ms, 0376ms total)
T024C 024:839 JLINK_ReadMemU32(0xE000ED30, 0x0001 Items, ...) -- CPU_ReadMem(4 bytes @ 0xE000ED30) - Data: 02 00 00 00  returns 0x01 (0001ms, 0377ms total)
T024C 024:840 JLINK_ReadMemU32(0xE0001028, 0x0001 Items, ...) -- CPU_ReadMem(4 bytes @ 0xE0001028) - Data: 00 00 00 00  returns 0x01 (0001ms, 0378ms total)
T024C 024:841 JLINK_ReadMemU32(0xE0001038, 0x0001 Items, ...) -- CPU_ReadMem(4 bytes @ 0xE0001038) - Data: 00 02 00 00  returns 0x01 (0000ms, 0378ms total)
T024C 024:841 JLINK_ReadMemU32(0xE0001048, 0x0001 Items, ...) -- CPU_ReadMem(4 bytes @ 0xE0001048) - Data: 00 00 00 00  returns 0x01 (0001ms, 0379ms total)
T024C 024:842 JLINK_ReadMemU32(0xE0001058, 0x0001 Items, ...) -- CPU_ReadMem(4 bytes @ 0xE0001058) - Data: 00 00 00 00  returns 0x01 (0000ms, 0379ms total)
T024C 024:842 JLINK_ReadReg(R0)  returns 0x00000003 (0000ms, 0379ms total)
T024C 024:842 JLINK_ReadReg(R1)  returns 0x200043F0 (0000ms, 0379ms total)
T024C 024:842 JLINK_ReadReg(R2)  returns 0x00020EE5 (0000ms, 0379ms total)
T024C 024:842 JLINK_ReadReg(R3)  returns 0x00020EE5 (0000ms, 0379ms total)
T024C 024:842 JLINK_ReadReg(R4)  returns 0x0000000D (0000ms, 0379ms total)
T024C 024:842 JLINK_ReadReg(R5)  returns 0x000212F0 (0000ms, 0379ms total)
T024C 024:842 JLINK_ReadReg(R6)  returns 0x00000000 (0000ms, 0379ms total)
T024C 024:842 JLINK_ReadReg(R7)  returns 0x2000446C (0000ms, 0379ms total)
T024C 024:842 JLINK_ReadReg(R8)  returns 0x00000000 (0000ms, 0379ms total)
T024C 024:842 JLINK_ReadReg(R9)  returns 0x00000000 (0000ms, 0379ms total)
T024C 024:842 JLINK_ReadReg(R10)  returns 0x00020EE5 (0000ms, 0379ms total)
T024C 024:842 JLINK_ReadReg(R11)  returns 0x00000000 (0000ms, 0379ms total)
T024C 024:842 JLINK_ReadReg(R12)  returns 0x00000001 (0000ms, 0379ms total)
T024C 024:842 JLINK_ReadReg(R13 (SP))  returns 0x200043F0 (0000ms, 0379ms total)
T024C 024:843 JLINK_ReadReg(R14)  returns 0x0001FA93 (0000ms, 0379ms total)
T024C 024:843 JLINK_ReadReg(R15 (PC))  returns 0x00020EF0 (0000ms, 0379ms total)
T024C 024:843 JLINK_ReadReg(XPSR)  returns 0x01000000 (0000ms, 0379ms total)
T024C 024:843 JLINK_ReadReg(MSP)  returns 0x200043F0 (0000ms, 0379ms total)
T024C 024:843 JLINK_ReadReg(PSP)  returns 0x00000000 (0000ms, 0379ms total)
T024C 024:843 JLINK_ReadReg(CFBP)  returns 0x00000000 (0000ms, 0379ms total)
T024C 024:843 JLINK_ReadReg(FPSCR)  returns 0x00000000 (0010ms, 0389ms total)
T024C 024:853 JLINK_ReadReg(FPS0)  returns 0x00000000 (0000ms, 0389ms total)
T024C 024:853 JLINK_ReadReg(FPS1)  returns 0x00000000 (0000ms, 0389ms total)
T024C 024:853 JLINK_ReadReg(FPS2)  returns 0x00000000 (0000ms, 0389ms total)
T024C 024:853 JLINK_ReadReg(FPS3)  returns 0x00000000 (0000ms, 0389ms total)
T024C 024:853 JLINK_ReadReg(FPS4)  returns 0x00000000 (0000ms, 0389ms total)
T024C 024:853 JLINK_ReadReg(FPS5)  returns 0x00000000 (0000ms, 0389ms total)
T024C 024:853 JLINK_ReadReg(FPS6)  returns 0x00000000 (0000ms, 0389ms total)
T024C 024:853 JLINK_ReadReg(FPS7)  returns 0x00000000 (0000ms, 0389ms total)
T024C 024:853 JLINK_ReadReg(FPS8)  returns 0x00000000 (0000ms, 0389ms total)
T024C 024:853 JLINK_ReadReg(FPS9)  returns 0x00000000 (0000ms, 0389ms total)
T024C 024:853 JLINK_ReadReg(FPS10)  returns 0x00000000 (0000ms, 0389ms total)
T024C 024:853 JLINK_ReadReg(FPS11)  returns 0x00000000 (0000ms, 0389ms total)
T024C 024:853 JLINK_ReadReg(FPS12)  returns 0x00000000 (0000ms, 0389ms total)
T024C 024:853 JLINK_ReadReg(FPS13)  returns 0x00000000 (0000ms, 0389ms total)
T024C 024:853 JLINK_ReadReg(FPS14)  returns 0x00000000 (0000ms, 0389ms total)
T024C 024:853 JLINK_ReadReg(FPS15)  returns 0x00000000 (0000ms, 0389ms total)
T024C 024:853 JLINK_ReadReg(FPS16)  returns 0x00000000 (0000ms, 0389ms total)
T024C 024:853 JLINK_ReadReg(FPS17)  returns 0x00000000 (0000ms, 0389ms total)
T024C 024:853 JLINK_ReadReg(FPS18)  returns 0x00000000 (0000ms, 0389ms total)
T024C 024:853 JLINK_ReadReg(FPS19)  returns 0x00000000 (0000ms, 0389ms total)
T024C 024:853 JLINK_ReadReg(FPS20)  returns 0x00000000 (0000ms, 0389ms total)
T024C 024:853 JLINK_ReadReg(FPS21)  returns 0x00000000 (0000ms, 0389ms total)
T024C 024:853 JLINK_ReadReg(FPS22)  returns 0x00000000 (0000ms, 0389ms total)
T024C 024:853 JLINK_ReadReg(FPS23)  returns 0x00000000 (0000ms, 0389ms total)
T024C 024:853 JLINK_ReadReg(FPS24)  returns 0x00000000 (0000ms, 0389ms total)
T024C 024:853 JLINK_ReadReg(FPS25)  returns 0x00000000 (0000ms, 0389ms total)
T024C 024:853 JLINK_ReadReg(FPS26)  returns 0x00000000 (0000ms, 0389ms total)
T024C 024:853 JLINK_ReadReg(FPS27)  returns 0x00000000 (0000ms, 0389ms total)
T024C 024:853 JLINK_ReadReg(FPS28)  returns 0x00000000 (0000ms, 0389ms total)
T024C 024:853 JLINK_ReadReg(FPS29)  returns 0x00000000 (0000ms, 0389ms total)
T024C 024:853 JLINK_ReadReg(FPS30)  returns 0x00000000 (0000ms, 0389ms total)
T024C 024:853 JLINK_ReadReg(FPS31)  returns 0x00000000 (0000ms, 0389ms total)
T4D34 024:854 JLINK_ReadMem (0x200043FC, 0x0004 Bytes, ...) -- CPU_ReadMem(64 bytes @ 0x200043C0) -- Updating C cache (64 bytes @ 0x200043C0) -- Read from C cache (4 bytes @ 0x200043FC) - Data: 93 FA 01 00  returns 0x00 (0001ms, 0390ms total)
T4D34 024:855 JLINK_ReadMem (0x200043F4, 0x0004 Bytes, ...) -- Read from C cache (4 bytes @ 0x200043F4) - Data: 00 00 00 00  returns 0x00 (0000ms, 0390ms total)
T4D34 024:855 JLINK_ReadMem (0x200043F8, 0x0004 Bytes, ...) -- Read from C cache (4 bytes @ 0x200043F8) - Data: F0 12 02 00  returns 0x00 (0000ms, 0390ms total)
T4D34 024:855 JLINK_ReadMem (0x2000445C, 0x0004 Bytes, ...) -- CPU_ReadMem(64 bytes @ 0x20004440) -- Updating C cache (64 bytes @ 0x20004440) -- Read from C cache (4 bytes @ 0x2000445C) - Data: 25 FA 01 00  returns 0x00 (0002ms, 0392ms total)
T4D34 024:857 JLINK_ReadMem (0x2000443C, 0x0004 Bytes, ...) -- CPU_ReadMem(64 bytes @ 0x20004400) -- Updating C cache (64 bytes @ 0x20004400) -- Read from C cache (4 bytes @ 0x2000443C) - Data: 00 00 00 00  returns 0x00 (0001ms, 0393ms total)
T4D34 024:858 JLINK_ReadMem (0x20004440, 0x0004 Bytes, ...) -- Read from C cache (4 bytes @ 0x20004440) - Data: 10 00 00 00  returns 0x00 (0000ms, 0393ms total)
T4D34 024:858 JLINK_ReadMem (0x20004444, 0x0004 Bytes, ...) -- Read from C cache (4 bytes @ 0x20004444) - Data: 01 00 00 00  returns 0x00 (0000ms, 0393ms total)
T4D34 024:858 JLINK_ReadMem (0x20004448, 0x0004 Bytes, ...) -- Read from C cache (4 bytes @ 0x20004448) - Data: 00 00 00 00  returns 0x00 (0000ms, 0393ms total)
T4D34 024:858 JLINK_ReadMem (0x2000444C, 0x0004 Bytes, ...) -- Read from C cache (4 bytes @ 0x2000444C) - Data: 00 00 00 00  returns 0x00 (0001ms, 0394ms total)
T4D34 024:859 JLINK_ReadMem (0x20004450, 0x0004 Bytes, ...) -- Read from C cache (4 bytes @ 0x20004450) - Data: 00 00 00 00  returns 0x00 (0000ms, 0394ms total)
T4D34 024:859 JLINK_ReadMem (0x20004454, 0x0004 Bytes, ...) -- Read from C cache (4 bytes @ 0x20004454) - Data: 00 00 00 00  returns 0x00 (0000ms, 0394ms total)
T4D34 024:859 JLINK_ReadMem (0x20004458, 0x0004 Bytes, ...) -- Read from C cache (4 bytes @ 0x20004458) - Data: 00 00 00 00  returns 0x00 (0000ms, 0394ms total)
T4D34 024:859 JLINK_ReadMem (0x20004464, 0x0004 Bytes, ...) -- Read from C cache (4 bytes @ 0x20004464) - Data: 93 12 02 00  returns 0x00 (0000ms, 0394ms total)
T4D34 024:859 JLINK_ReadMem (0x20004460, 0x0004 Bytes, ...) -- Read from C cache (4 bytes @ 0x20004460) - Data: 00 00 00 00  returns 0x00 (0000ms, 0394ms total)
T4D34 024:859 JLINK_ReadMemU32(0xE0001004, 0x0001 Items, ...) -- CPU_ReadMem(4 bytes @ 0xE0001004) - Data: 8C 32 BC 01  returns 0x01 (0000ms, 0394ms total)
T024C 025:725 JLINK_SetBPEx(Addr = 0x0002031E, Type = 0xFFFFFFF2)  returns 0x00000005 (0000ms, 0394ms total)
T024C 025:725 JLINK_Go() -- CPU_WriteMem(4 bytes @ 0xE0002000) -- CPU_ReadMem(4 bytes @ 0xE0001000) (0003ms, 0397ms total)
T024C 025:829 JLINK_IsHalted()  returns TRUE (0006ms, 0403ms total)
T024C 025:835 JLINK_Halt()  returns 0x00 (0000ms, 0397ms total)
T024C 025:835 JLINK_IsHalted()  returns TRUE (0000ms, 0397ms total)
T024C 025:835 JLINK_IsHalted()  returns TRUE (0000ms, 0397ms total)
T024C 025:835 JLINK_IsHalted()  returns TRUE (0000ms, 0397ms total)
T024C 025:835 JLINK_ReadReg(R15 (PC))  returns 0x00020EF0 (0000ms, 0397ms total)
T024C 025:835 JLINK_ReadReg(XPSR)  returns 0x01000000 (0000ms, 0397ms total)
T024C 025:835 JLINK_ClrBPEx(BPHandle = 0x00000005)  returns 0x00 (0000ms, 0397ms total)
T024C 025:835 JLINK_ReadMemU32(0xE000ED30, 0x0001 Items, ...) -- CPU_ReadMem(4 bytes @ 0xE000ED30) - Data: 02 00 00 00  returns 0x01 (0001ms, 0398ms total)
T024C 025:836 JLINK_ReadMemU32(0xE0001028, 0x0001 Items, ...) -- CPU_ReadMem(4 bytes @ 0xE0001028) - Data: 00 00 00 00  returns 0x01 (0001ms, 0399ms total)
T024C 025:837 JLINK_ReadMemU32(0xE0001038, 0x0001 Items, ...) -- CPU_ReadMem(4 bytes @ 0xE0001038) - Data: 00 02 00 00  returns 0x01 (0000ms, 0399ms total)
T024C 025:837 JLINK_ReadMemU32(0xE0001048, 0x0001 Items, ...) -- CPU_ReadMem(4 bytes @ 0xE0001048) - Data: 00 00 00 00  returns 0x01 (0001ms, 0400ms total)
T024C 025:838 JLINK_ReadMemU32(0xE0001058, 0x0001 Items, ...) -- CPU_ReadMem(4 bytes @ 0xE0001058) - Data: 00 00 00 00  returns 0x01 (0000ms, 0400ms total)
T024C 025:838 JLINK_ReadReg(R0)  returns 0x00000003 (0000ms, 0400ms total)
T024C 025:838 JLINK_ReadReg(R1)  returns 0x200043F0 (0000ms, 0400ms total)
T024C 025:838 JLINK_ReadReg(R2)  returns 0x00020EE5 (0000ms, 0400ms total)
T024C 025:838 JLINK_ReadReg(R3)  returns 0x00020EE5 (0000ms, 0400ms total)
T024C 025:838 JLINK_ReadReg(R4)  returns 0x0000000D (0000ms, 0400ms total)
T024C 025:838 JLINK_ReadReg(R5)  returns 0x000212F0 (0000ms, 0400ms total)
T024C 025:838 JLINK_ReadReg(R6)  returns 0x00000000 (0001ms, 0401ms total)
T024C 025:839 JLINK_ReadReg(R7)  returns 0x2000446C (0000ms, 0401ms total)
T024C 025:839 JLINK_ReadReg(R8)  returns 0x00000000 (0000ms, 0401ms total)
T024C 025:839 JLINK_ReadReg(R9)  returns 0x00000000 (0000ms, 0401ms total)
T024C 025:839 JLINK_ReadReg(R10)  returns 0x00020EE5 (0000ms, 0401ms total)
T024C 025:839 JLINK_ReadReg(R11)  returns 0x00000000 (0000ms, 0401ms total)
T024C 025:839 JLINK_ReadReg(R12)  returns 0x00000001 (0000ms, 0401ms total)
T024C 025:839 JLINK_ReadReg(R13 (SP))  returns 0x200043F0 (0000ms, 0401ms total)
T024C 025:839 JLINK_ReadReg(R14)  returns 0x0001FA93 (0000ms, 0401ms total)
T024C 025:839 JLINK_ReadReg(R15 (PC))  returns 0x00020EF0 (0000ms, 0401ms total)
T024C 025:839 JLINK_ReadReg(XPSR)  returns 0x01000000 (0000ms, 0401ms total)
T024C 025:839 JLINK_ReadReg(MSP)  returns 0x200043F0 (0000ms, 0401ms total)
T024C 025:839 JLINK_ReadReg(PSP)  returns 0x00000000 (0000ms, 0401ms total)
T024C 025:839 JLINK_ReadReg(CFBP)  returns 0x00000000 (0000ms, 0401ms total)
T024C 025:839 JLINK_ReadReg(FPSCR)  returns 0x00000000 (0010ms, 0411ms total)
T024C 025:849 JLINK_ReadReg(FPS0)  returns 0x00000000 (0000ms, 0411ms total)
T024C 025:849 JLINK_ReadReg(FPS1)  returns 0x00000000 (0000ms, 0411ms total)
T024C 025:849 JLINK_ReadReg(FPS2)  returns 0x00000000 (0000ms, 0411ms total)
T024C 025:849 JLINK_ReadReg(FPS3)  returns 0x00000000 (0000ms, 0411ms total)
T024C 025:849 JLINK_ReadReg(FPS4)  returns 0x00000000 (0000ms, 0411ms total)
T024C 025:849 JLINK_ReadReg(FPS5)  returns 0x00000000 (0000ms, 0411ms total)
T024C 025:849 JLINK_ReadReg(FPS6)  returns 0x00000000 (0000ms, 0411ms total)
T024C 025:849 JLINK_ReadReg(FPS7)  returns 0x00000000 (0000ms, 0411ms total)
T024C 025:849 JLINK_ReadReg(FPS8)  returns 0x00000000 (0000ms, 0411ms total)
T024C 025:849 JLINK_ReadReg(FPS9)  returns 0x00000000 (0000ms, 0411ms total)
T024C 025:849 JLINK_ReadReg(FPS10)  returns 0x00000000 (0000ms, 0411ms total)
T024C 025:849 JLINK_ReadReg(FPS11)  returns 0x00000000 (0000ms, 0411ms total)
T024C 025:849 JLINK_ReadReg(FPS12)  returns 0x00000000 (0000ms, 0411ms total)
T024C 025:849 JLINK_ReadReg(FPS13)  returns 0x00000000 (0000ms, 0411ms total)
T024C 025:849 JLINK_ReadReg(FPS14)  returns 0x00000000 (0000ms, 0411ms total)
T024C 025:849 JLINK_ReadReg(FPS15)  returns 0x00000000 (0000ms, 0411ms total)
T024C 025:849 JLINK_ReadReg(FPS16)  returns 0x00000000 (0000ms, 0411ms total)
T024C 025:849 JLINK_ReadReg(FPS17)  returns 0x00000000 (0000ms, 0411ms total)
T024C 025:849 JLINK_ReadReg(FPS18)  returns 0x00000000 (0000ms, 0411ms total)
T024C 025:849 JLINK_ReadReg(FPS19)  returns 0x00000000 (0000ms, 0411ms total)
T024C 025:849 JLINK_ReadReg(FPS20)  returns 0x00000000 (0000ms, 0411ms total)
T024C 025:849 JLINK_ReadReg(FPS21)  returns 0x00000000 (0000ms, 0411ms total)
T024C 025:849 JLINK_ReadReg(FPS22)  returns 0x00000000 (0000ms, 0411ms total)
T024C 025:849 JLINK_ReadReg(FPS23)  returns 0x00000000 (0000ms, 0411ms total)
T024C 025:849 JLINK_ReadReg(FPS24)  returns 0x00000000 (0000ms, 0411ms total)
T024C 025:849 JLINK_ReadReg(FPS25)  returns 0x00000000 (0000ms, 0411ms total)
T024C 025:849 JLINK_ReadReg(FPS26)  returns 0x00000000 (0000ms, 0411ms total)
T024C 025:849 JLINK_ReadReg(FPS27)  returns 0x00000000 (0000ms, 0411ms total)
T024C 025:849 JLINK_ReadReg(FPS28)  returns 0x00000000 (0000ms, 0411ms total)
T024C 025:849 JLINK_ReadReg(FPS29)  returns 0x00000000 (0000ms, 0411ms total)
T024C 025:849 JLINK_ReadReg(FPS30)  returns 0x00000000 (0000ms, 0411ms total)
T024C 025:849 JLINK_ReadReg(FPS31)  returns 0x00000000 (0000ms, 0411ms total)
T4D34 025:850 JLINK_ReadMem (0x200043FC, 0x0004 Bytes, ...) -- CPU_ReadMem(64 bytes @ 0x200043C0) -- Updating C cache (64 bytes @ 0x200043C0) -- Read from C cache (4 bytes @ 0x200043FC) - Data: 93 FA 01 00  returns 0x00 (0001ms, 0412ms total)
T4D34 025:851 JLINK_ReadMem (0x200043F4, 0x0004 Bytes, ...) -- Read from C cache (4 bytes @ 0x200043F4) - Data: 00 00 00 00  returns 0x00 (0000ms, 0412ms total)
T4D34 025:851 JLINK_ReadMem (0x200043F8, 0x0004 Bytes, ...) -- Read from C cache (4 bytes @ 0x200043F8) - Data: F0 12 02 00  returns 0x00 (0000ms, 0412ms total)
T4D34 025:851 JLINK_ReadMem (0x2000445C, 0x0004 Bytes, ...) -- CPU_ReadMem(64 bytes @ 0x20004440) -- Updating C cache (64 bytes @ 0x20004440) -- Read from C cache (4 bytes @ 0x2000445C) - Data: 25 FA 01 00  returns 0x00 (0002ms, 0414ms total)
T4D34 025:853 JLINK_ReadMem (0x2000443C, 0x0004 Bytes, ...) -- CPU_ReadMem(64 bytes @ 0x20004400) -- Updating C cache (64 bytes @ 0x20004400) -- Read from C cache (4 bytes @ 0x2000443C) - Data: 00 00 00 00  returns 0x00 (0001ms, 0415ms total)
T4D34 025:854 JLINK_ReadMem (0x20004440, 0x0004 Bytes, ...) -- Read from C cache (4 bytes @ 0x20004440) - Data: 10 00 00 00  returns 0x00 (0000ms, 0415ms total)
T4D34 025:854 JLINK_ReadMem (0x20004444, 0x0004 Bytes, ...) -- Read from C cache (4 bytes @ 0x20004444) - Data: 01 00 00 00  returns 0x00 (0000ms, 0415ms total)
T4D34 025:854 JLINK_ReadMem (0x20004448, 0x0004 Bytes, ...) -- Read from C cache (4 bytes @ 0x20004448) - Data: 00 00 00 00  returns 0x00 (0000ms, 0415ms total)
T4D34 025:854 JLINK_ReadMem (0x2000444C, 0x0004 Bytes, ...) -- Read from C cache (4 bytes @ 0x2000444C) - Data: 00 00 00 00  returns 0x00 (0000ms, 0415ms total)
T4D34 025:854 JLINK_ReadMem (0x20004450, 0x0004 Bytes, ...) -- Read from C cache (4 bytes @ 0x20004450) - Data: 00 00 00 00  returns 0x00 (0000ms, 0415ms total)
T4D34 025:854 JLINK_ReadMem (0x20004454, 0x0004 Bytes, ...) -- Read from C cache (4 bytes @ 0x20004454) - Data: 00 00 00 00  returns 0x00 (0000ms, 0415ms total)
T4D34 025:854 JLINK_ReadMem (0x20004458, 0x0004 Bytes, ...) -- Read from C cache (4 bytes @ 0x20004458) - Data: 00 00 00 00  returns 0x00 (0000ms, 0415ms total)
T4D34 025:854 JLINK_ReadMem (0x20004464, 0x0004 Bytes, ...) -- Read from C cache (4 bytes @ 0x20004464) - Data: 93 12 02 00  returns 0x00 (0000ms, 0415ms total)
T4D34 025:854 JLINK_ReadMem (0x20004460, 0x0004 Bytes, ...) -- Read from C cache (4 bytes @ 0x20004460) - Data: 00 00 00 00  returns 0x00 (0000ms, 0415ms total)
T4D34 025:854 JLINK_ReadMemU32(0xE0001004, 0x0001 Items, ...) -- CPU_ReadMem(4 bytes @ 0xE0001004) - Data: BB 33 BC 01  returns 0x01 (0001ms, 0416ms total)
T4D34 027:216 JLINK_SetResetType(JLINKARM_CM3_RESET_TYPE_NORMAL)  returns JLINKARM_CM3_RESET_TYPE_NORMAL (0000ms, 0416ms total)
T4D34 027:216 JLINK_Reset() -- CPU_WriteMem(4 bytes @ 0xE000EDF0) -- CPU_WriteMem(4 bytes @ 0xE000EDFC) >0x35 TIF> -- CPU_WriteMem(4 bytes @ 0xE000ED0C) -- CPU_ReadMem(4 bytes @ 0xE000EDF0) -- CPU_ReadMem(4 bytes @ 0xE000EDF0) -- CPU_WriteMem(4 bytes @ 0xE000EDF0) -- CPU_WriteMem(4 bytes @ 0xE000EDFC) -- CPU is running -- CPU_ReadMem(4 bytes @ 0xE000EDF0) -- CPU_WriteMem(4 bytes @ 0xE0002000) -- CPU_ReadMem(4 bytes @ 0xE000EDFC) -- CPU_ReadMem(4 bytes @ 0xE0001000) (0023ms, 0439ms total)
T4D34 027:239 JLINK_ReadReg(R15 (PC))  returns 0x000008E4 (0000ms, 0439ms total)
T4D34 027:239 JLINK_ReadReg(XPSR)  returns 0x01000000 (0000ms, 0439ms total)
T4D34 027:239 JLINK_ReadMemU32(0xE0001004, 0x0001 Items, ...) - Data: 00 00 00 00  returns 0x01 (0000ms, 0439ms total)
T4D34 027:242 JLINK_ReadMem (0x000008E4, 0x003C Bytes, ...) -- CPU_ReadMem(128 bytes @ 0x000008C0) -- Updating C cache (128 bytes @ 0x000008C0) -- Read from C cache (60 bytes @ 0x000008E4) - Data: 06 4B 18 47 06 4A 10 60 01 68 81 F3 08 88 40 68 ...  returns 0x00 (0003ms, 0442ms total)
T4D34 031:747 JLINK_SetResetType(JLINKARM_CM3_RESET_TYPE_NORMAL)  returns JLINKARM_CM3_RESET_TYPE_NORMAL (0000ms, 0442ms total)
T4D34 031:747 JLINK_Reset() -- CPU_WriteMem(4 bytes @ 0xE000EDF0) -- CPU_WriteMem(4 bytes @ 0xE000EDFC) >0x35 TIF> -- CPU_WriteMem(4 bytes @ 0xE000ED0C) -- CPU_ReadMem(4 bytes @ 0xE000EDF0) -- CPU_ReadMem(4 bytes @ 0xE000EDF0) -- CPU_WriteMem(4 bytes @ 0xE000EDF0) -- CPU_WriteMem(4 bytes @ 0xE000EDFC) -- CPU is running -- CPU_ReadMem(4 bytes @ 0xE000EDF0) -- CPU_WriteMem(4 bytes @ 0xE0002000) -- CPU_ReadMem(4 bytes @ 0xE000EDFC) -- CPU_ReadMem(4 bytes @ 0xE0001000) (0023ms, 0465ms total)
T4D34 031:770 JLINK_ReadReg(R15 (PC))  returns 0x000008E4 (0000ms, 0465ms total)
T4D34 031:770 JLINK_ReadReg(XPSR)  returns 0x01000000 (0000ms, 0465ms total)
T4D34 031:770 JLINK_ReadMemU32(0xE0001004, 0x0001 Items, ...) - Data: 00 00 00 00  returns 0x01 (0001ms, 0466ms total)
T4D34 031:775 JLINK_ReadMem (0x000212A4, 0x003C Bytes, ...) -- CPU_ReadMem(128 bytes @ 0x00021280) -- Updating C cache (128 bytes @ 0x00021280) -- Read from C cache (60 bytes @ 0x000212A4) - Data: 30 21 81 70 C5 70 97 21 01 71 44 71 0D 21 81 71 ...  returns 0x00 (0002ms, 0468ms total)
T4D34 032:827 JLINK_SetResetType(JLINKARM_CM3_RESET_TYPE_NORMAL)  returns JLINKARM_CM3_RESET_TYPE_NORMAL (0000ms, 0468ms total)
T4D34 032:827 JLINK_Reset() -- CPU_WriteMem(4 bytes @ 0xE000EDF0) -- CPU_WriteMem(4 bytes @ 0xE000EDFC) >0x35 TIF> -- CPU_WriteMem(4 bytes @ 0xE000ED0C) -- CPU_ReadMem(4 bytes @ 0xE000EDF0) -- CPU_ReadMem(4 bytes @ 0xE000EDF0) -- CPU_WriteMem(4 bytes @ 0xE000EDF0) -- CPU_WriteMem(4 bytes @ 0xE000EDFC) -- CPU is running -- CPU_ReadMem(4 bytes @ 0xE000EDF0) -- CPU_WriteMem(4 bytes @ 0xE0002000) -- CPU_ReadMem(4 bytes @ 0xE000EDFC) -- CPU_ReadMem(4 bytes @ 0xE0001000) (0023ms, 0491ms total)
T4D34 032:851 JLINK_ReadReg(R15 (PC))  returns 0x000008E4 (0000ms, 0491ms total)
T4D34 032:851 JLINK_ReadReg(XPSR)  returns 0x01000000 (0000ms, 0491ms total)
T4D34 032:851 JLINK_ReadMemU32(0xE0001004, 0x0001 Items, ...) - Data: 00 00 00 00  returns 0x01 (0000ms, 0491ms total)
T024C 033:886 JLINK_SetBPEx(Addr = 0x0002031E, Type = 0xFFFFFFF2)  returns 0x00000006 (0001ms, 0492ms total)
T024C 033:887 JLINK_SetBPEx(Addr = 0x000212A4, Type = 0xFFFFFFF2)  returns 0x00000007 (0000ms, 0492ms total)
T024C 033:887 JLINK_Go() -- CPU_WriteMem(4 bytes @ 0xE0002000) -- CPU_WriteMem(4 bytes @ 0xE0002000) -- CPU_ReadMem(4 bytes @ 0xE0001000) -- CPU_WriteMem(4 bytes @ 0xE0002008) -- CPU_WriteMem(4 bytes @ 0xE000200C) -- CPU_WriteMem(4 bytes @ 0xE0002010) -- CPU_WriteMem(4 bytes @ 0xE0002014) -- CPU_WriteMem(4 bytes @ 0xE0002018) -- CPU_WriteMem(4 bytes @ 0xE000201C) -- CPU_WriteMem(4 bytes @ 0xE0001004) (0006ms, 0498ms total)
T024C 033:994 JLINK_IsHalted()  returns FALSE (0000ms, 0498ms total)
T024C 034:095 JLINK_IsHalted()  returns FALSE (0000ms, 0498ms total)
T024C 034:196 JLINK_IsHalted()  returns FALSE (0000ms, 0498ms total)
T024C 034:297 JLINK_IsHalted()  returns FALSE (0000ms, 0498ms total)
T024C 034:398 JLINK_IsHalted()  returns TRUE (0006ms, 0504ms total)
T024C 034:404 JLINK_Halt()  returns 0x00 (0000ms, 0498ms total)
T024C 034:404 JLINK_IsHalted()  returns TRUE (0000ms, 0498ms total)
T024C 034:404 JLINK_IsHalted()  returns TRUE (0000ms, 0498ms total)
T024C 034:404 JLINK_IsHalted()  returns TRUE (0000ms, 0498ms total)
T024C 034:404 JLINK_ReadReg(R15 (PC))  returns 0x00020EF0 (0000ms, 0498ms total)
T024C 034:404 JLINK_ReadReg(XPSR)  returns 0x01000000 (0001ms, 0499ms total)
T024C 034:405 JLINK_ClrBPEx(BPHandle = 0x00000006)  returns 0x00 (0000ms, 0499ms total)
T024C 034:405 JLINK_ClrBPEx(BPHandle = 0x00000007)  returns 0x00 (0000ms, 0499ms total)
T024C 034:405 JLINK_ReadMemU32(0xE000ED30, 0x0001 Items, ...) -- CPU_ReadMem(4 bytes @ 0xE000ED30) - Data: 02 00 00 00  returns 0x01 (0000ms, 0499ms total)
T024C 034:405 JLINK_ReadMemU32(0xE0001028, 0x0001 Items, ...) -- CPU_ReadMem(4 bytes @ 0xE0001028) - Data: 00 00 00 00  returns 0x01 (0001ms, 0500ms total)
T024C 034:406 JLINK_ReadMemU32(0xE0001038, 0x0001 Items, ...) -- CPU_ReadMem(4 bytes @ 0xE0001038) - Data: 00 02 00 00  returns 0x01 (0000ms, 0500ms total)
T024C 034:406 JLINK_ReadMemU32(0xE0001048, 0x0001 Items, ...) -- CPU_ReadMem(4 bytes @ 0xE0001048) - Data: 00 00 00 00  returns 0x01 (0001ms, 0501ms total)
T024C 034:407 JLINK_ReadMemU32(0xE0001058, 0x0001 Items, ...) -- CPU_ReadMem(4 bytes @ 0xE0001058) - Data: 00 00 00 00  returns 0x01 (0001ms, 0502ms total)
